
**** 11/09/25 19:12:14 ******* PSpice Lite (March 2016) ******* ID# 10813 ****

 ** Profile: "SCHEMATIC1-f_T"  [ c:\users\skypv\desktop\etti\test123-PSpiceFiles\SCHEMATIC1\f_T.sim ] 


 ****     CIRCUIT DESCRIPTION


******************************************************************************




** Creating circuit file "f_T.cir" 
** WARNING: THIS AUTOMATICALLY GENERATED FILE MAY BE OVERWRITTEN BY SUBSEQUENT SIMULATIONS

*Libraries: 
* Profile Libraries :
* Local Libraries :
.LIB "c:/users/skypv/desktop/librarii_pspice/lib_modelepspice_anexa_1/modele_a1_lib/bc846b.lib" 
.LIB "c:/users/skypv/desktop/librarii_pspice/lib_modelepspice_anexa_1/modele_a1_lib/bc856b.lib" 
* From [PSPICE NETLIST] section of C:\Users\skypv\AppData\Roaming\SPB_Data\cdssetup\OrCAD_PSpice\17.2.0\PSpice.ini file:
.lib "nomd.lib" 

*Analysis directives: 
.AC DEC 1000 1 100Meg
.OPTIONS ADVCONV
.PROBE64 V(alias(*)) I(alias(*)) W(alias(*)) D(alias(*)) NOISE(alias(*)) 
.INC "..\SCHEMATIC1.net" 



**** INCLUDING SCHEMATIC1.net ****
* source TEST123
V_V3         0 N05855 9
Q_Q4         N05673 N05593 N05491 QBC856B 
Q_Q2         N05491 N05471 N07661 QBC856B 
Q_Q5         N05677 N05605 N05491 QBC856B 
V_V2         N05393 0 9
Q_Q3         N05495 N05471 N07657 QBC856B 
Q_Q6         N05673 N05673 N058292 QBC846B 
R_R5         N05855 N058292  100 TC=0,0 
R_R10         N08444 N05649  33.2k TC=0,0 
R_R11         0 N05649  10k TC=0,0 
R_RL         0 N08450  11k TC=0,0 
R_R6         N05855 N058472  100 TC=0,0 
R_R12         0 0  10k TC=0,0 
Q_Q8         N05495 N05677 N05855 QBC846B 
Q_Q7         N05677 N05673 N058472 QBC846B 
R_R7         N05593 N10360  1k TC=0,0 
C_C1         0 N05593  10n  TC=0,0 
Q_Q10         N05855 N05495 N05649 QBC856B 
Q_Q9         N05393 N05495 N05649 QBC846B 
R_R2         N07661 N05393  100 TC=0,0 
R_R3         N07657 N05393  100 TC=0,0 
X_POT1         0 N08450 N08444 POT PARAMS: SET=0 VALUE=10k
X_POT2         N10360 N05649 N05649 POT PARAMS: SET=1 VALUE=10k
D_D1         N10662 0 MLED81
R_R9         N10662 N05393  1k TC=0,0 
R_R1         N219601 N05393  100 TC=0,0 
Q_Q1         N05471 N05471 N219601 QBC856B 
R_R4         N05855 N05471  22k TC=0,0 
R_R13         N10360 N05649  11k TC=0,0 
V_V4         N05605 0 DC 0Vdc AC 1Vac 

**** RESUMING f_T.cir ****
.END

**** 11/09/25 19:12:14 ******* PSpice Lite (March 2016) ******* ID# 10813 ****

 ** Profile: "SCHEMATIC1-f_T"  [ c:\users\skypv\desktop\etti\test123-PSpiceFiles\SCHEMATIC1\f_T.sim ] 


 ****     Diode MODEL PARAMETERS


******************************************************************************




               MLED81          
          IS   10.000000E-09 
           N    1.1248       
         ISR   10.010000E-21 
         IKF   45.752000E-15 
          BV    5.4169       
         IBV   10            
          RS    1.2366       
          TT    5.000000E-09 
         CJO   25.000000E-12 
          VJ     .75         
           M     .3333       


**** 11/09/25 19:12:14 ******* PSpice Lite (March 2016) ******* ID# 10813 ****

 ** Profile: "SCHEMATIC1-f_T"  [ c:\users\skypv\desktop\etti\test123-PSpiceFiles\SCHEMATIC1\f_T.sim ] 


 ****     BJT MODEL PARAMETERS


******************************************************************************




               QBC846B         QBC856B         
               NPN             PNP             
       LEVEL    1               1            
          IS   18.220000E-15   20.140000E-15 
          BF  324.4           315.3          
          NF     .9932           .9974       
         VAF   82              39.15         
         IKF     .109            .079        
         ISE  289.400000E-18    6.578000E-15 
          NE    1.4             1.45         
          BR    8.29            8.68         
          NR     .9931           .9952       
         VAR   17.9             9.5          
         IKR     .09             .09         
         ISC    9.982000E-12   16.330000E-15 
          NC    1.763           1.15         
         ISS    0               0            
          RB   10              10            
         RBM    5               5.000000E-06 
         IRB    5.000000E-06    5.000000E-06 
          RE     .649            .663        
          RC     .7014           .718        
         CJE   12.440000E-12   11.350000E-12 
         VJE     .7579           .7071       
         MJE     .3656           .3808       
         CJC    3.347000E-12    6.395000E-12 
         VJC     .5463           .4951       
         MJC     .391            .44         
        XCJC     .6193           .6288       
         CJS    0               0            
         VJS     .75             .75         
         MJS     .333            .333        
          FC     .979            .9059       
          TF  490.800000E-12  654.600000E-12 
         XTF    9.51            5.387        
         VTF    2.927           6.245        
         ITF     .3131           .2108       
          TR   90.000000E-09   55.000000E-09 
          KF    0               0            
          AF    1               1            
          CN    2.42            2.2          
           D     .87             .52         


**** 11/09/25 19:12:14 ******* PSpice Lite (March 2016) ******* ID# 10813 ****

 ** Profile: "SCHEMATIC1-f_T"  [ c:\users\skypv\desktop\etti\test123-PSpiceFiles\SCHEMATIC1\f_T.sim ] 


 ****     SMALL SIGNAL BIAS SOLUTION       TEMPERATURE =   27.000 DEG C


******************************************************************************



 NODE   VOLTAGE     NODE   VOLTAGE     NODE   VOLTAGE     NODE   VOLTAGE


(N05393)    9.0000 (N05471)    8.2904 (N05491)     .6089 (N05495)    -.4621     

(N05593)-29.74E-06 (N05605)    0.0000 (N05649)    -.0012 (N05673)   -8.3462     

(N05677)   -8.3706 (N05855)   -9.0000 (N07657)    8.9177 (N07661)    8.9182     

(N08444)-167.8E-06 (N08450)-167.8E-06 (N10360)    -.0012 (N10662)    1.1571     

(N058292)   -8.9594                   (N058472)   -8.9594                       

(N219601)    8.9219                   




    VOLTAGE SOURCE CURRENTS
    NAME         CURRENT

    V_V3        -2.421E-03
    V_V2        -1.027E-02
    V_V4         1.200E-06

    TOTAL POWER DISSIPATION   1.14E-01  WATTS



          JOB CONCLUDED

**** 11/09/25 19:12:14 ******* PSpice Lite (March 2016) ******* ID# 10813 ****

 ** Profile: "SCHEMATIC1-f_T"  [ c:\users\skypv\desktop\etti\test123-PSpiceFiles\SCHEMATIC1\f_T.sim ] 


 ****     JOB STATISTICS SUMMARY


******************************************************************************



  Total job time (using Solver 1)   =         .22
